! 8/8/2012 3:06:23 PM
! C:\SONG\2012\2012.08.08@275MK S21 NIST P=-90DBM 4AMP P1E.S2P
! CHANNEL.1
! TR.MEASUREMENT
! RAW.DATA
# GHZ S RI R 50.0
! FREQ.GHZ         S11RE        S11IM         S21RE        S21IM         S12RE        S12IM         S22RE        S22IM
   5.922000000     1.0000000    0.0000000     1.4737880   -1.4474110     1.0000000    0.0000000     1.0000000    0.0000000
   5.922001000     1.0000000    0.0000000     1.4708020   -1.4485920     1.0000000    0.0000000     1.0000000    0.0000000
   5.922002000     1.0000000    0.0000000     1.4716650   -1.4527460     1.0000000    0.0000000     1.0000000    0.0000000
   5.922003000     1.0000000    0.0000000     1.4718070   -1.4513640     1.0000000    0.0000000     1.0000000    0.0000000
   5.922004000     1.0000000    0.0000000     1.4754330   -1.4485950     1.0000000    0.0000000     1.0000000    0.0000000
   5.922005000     1.0000000    0.0000000     1.4709720   -1.4521370     1.0000000    0.0000000     1.0000000    0.0000000
   5.922006000     1.0000000    0.0000000     1.4749370   -1.4515560     1.0000000    0.0000000     1.0000000    0.0000000
   5.922007000     1.0000000    0.0000000     1.4713900   -1.4517210     1.0000000    0.0000000     1.0000000    0.0000000
   5.922008000     1.0000000    0.0000000     1.4721030   -1.4513520     1.0000000    0.0000000     1.0000000    0.0000000
   5.922009000     1.0000000    0.0000000     1.4711180   -1.4499630     1.0000000    0.0000000     1.0000000    0.0000000
   5.922010000     1.0000000    0.0000000     1.4698660   -1.4514480     1.0000000    0.0000000     1.0000000    0.0000000
   5.922011000     1.0000000    0.0000000     1.4693070   -1.4527520     1.0000000    0.0000000     1.0000000    0.0000000
   5.922012000     1.0000000    0.0000000     1.4676830   -1.4559260     1.0000000    0.0000000     1.0000000    0.0000000
   5.922013000     1.0000000    0.0000000     1.4686030   -1.4535000     1.0000000    0.0000000     1.0000000    0.0000000
   5.922014000     1.0000000    0.0000000     1.4679990   -1.4538760     1.0000000    0.0000000     1.0000000    0.0000000
   5.922015000     1.0000000    0.0000000     1.4658310   -1.4541470     1.0000000    0.0000000     1.0000000    0.0000000
   5.922016000     1.0000000    0.0000000     1.4666990   -1.4538710     1.0000000    0.0000000     1.0000000    0.0000000
   5.922017000     1.0000000    0.0000000     1.4664050   -1.4576170     1.0000000    0.0000000     1.0000000    0.0000000
   5.922018000     1.0000000    0.0000000     1.4663210   -1.4560570     1.0000000    0.0000000     1.0000000    0.0000000
   5.922019000     1.0000000    0.0000000     1.4683210   -1.4569160     1.0000000    0.0000000     1.0000000    0.0000000
   5.922020000     1.0000000    0.0000000     1.4668530   -1.4570470     1.0000000    0.0000000     1.0000000    0.0000000
   5.922021000     1.0000000    0.0000000     1.4653200   -1.4567270     1.0000000    0.0000000     1.0000000    0.0000000
   5.922022000     1.0000000    0.0000000     1.4655260   -1.4590010     1.0000000    0.0000000     1.0000000    0.0000000
   5.922023000     1.0000000    0.0000000     1.4634710   -1.4574340     1.0000000    0.0000000     1.0000000    0.0000000
   5.922024000     1.0000000    0.0000000     1.4639120   -1.4581910     1.0000000    0.0000000     1.0000000    0.0000000
   5.922025000     1.0000000    0.0000000     1.4626540   -1.4584830     1.0000000    0.0000000     1.0000000    0.0000000
   5.922026000     1.0000000    0.0000000     1.4621870   -1.4583360     1.0000000    0.0000000     1.0000000    0.0000000
   5.922027000     1.0000000    0.0000000     1.4609510   -1.4592470     1.0000000    0.0000000     1.0000000    0.0000000
   5.922028000     1.0000000    0.0000000     1.4646940   -1.4591410     1.0000000    0.0000000     1.0000000    0.0000000
   5.922029000     1.0000000    0.0000000     1.4627020   -1.4595410     1.0000000    0.0000000     1.0000000    0.0000000
   5.922030000     1.0000000    0.0000000     1.4613660   -1.4597700     1.0000000    0.0000000     1.0000000    0.0000000
   5.922031000     1.0000000    0.0000000     1.4630450   -1.4610010     1.0000000    0.0000000     1.0000000    0.0000000
   5.922032000     1.0000000    0.0000000     1.4595520   -1.4601340     1.0000000    0.0000000     1.0000000    0.0000000
   5.922033000     1.0000000    0.0000000     1.4590030   -1.4633070     1.0000000    0.0000000     1.0000000    0.0000000
   5.922034000     1.0000000    0.0000000     1.4598590   -1.4632200     1.0000000    0.0000000     1.0000000    0.0000000
   5.922035000     1.0000000    0.0000000     1.4604180   -1.4649880     1.0000000    0.0000000     1.0000000    0.0000000
   5.922036000     1.0000000    0.0000000     1.4564250   -1.4640900     1.0000000    0.0000000     1.0000000    0.0000000
   5.922037000     1.0000000    0.0000000     1.4583490   -1.4654660     1.0000000    0.0000000     1.0000000    0.0000000
   5.922038000     1.0000000    0.0000000     1.4605310   -1.4652030     1.0000000    0.0000000     1.0000000    0.0000000
   5.922039000     1.0000000    0.0000000     1.4600220   -1.4659890     1.0000000    0.0000000     1.0000000    0.0000000
   5.922040000     1.0000000    0.0000000     1.4559710   -1.4660860     1.0000000    0.0000000     1.0000000    0.0000000
   5.922041000     1.0000000    0.0000000     1.4561510   -1.4664910     1.0000000    0.0000000     1.0000000    0.0000000
   5.922042000     1.0000000    0.0000000     1.4583990   -1.4650290     1.0000000    0.0000000     1.0000000    0.0000000
   5.922043000     1.0000000    0.0000000     1.4568240   -1.4671740     1.0000000    0.0000000     1.0000000    0.0000000
   5.922044000     1.0000000    0.0000000     1.4575060   -1.4656310     1.0000000    0.0000000     1.0000000    0.0000000
   5.922045000     1.0000000    0.0000000     1.4550880   -1.4675990     1.0000000    0.0000000     1.0000000    0.0000000
   5.922046000     1.0000000    0.0000000     1.4540000   -1.4672960     1.0000000    0.0000000     1.0000000    0.0000000
   5.922047000     1.0000000    0.0000000     1.4560120   -1.4693030     1.0000000    0.0000000     1.0000000    0.0000000
   5.922048000     1.0000000    0.0000000     1.4530410   -1.4717420     1.0000000    0.0000000     1.0000000    0.0000000
   5.922049000     1.0000000    0.0000000     1.4535820   -1.4682520     1.0000000    0.0000000     1.0000000    0.0000000
   5.922050000     1.0000000    0.0000000     1.4543160   -1.4705500     1.0000000    0.0000000     1.0000000    0.0000000
   5.922051000     1.0000000    0.0000000     1.4538390   -1.4713310     1.0000000    0.0000000     1.0000000    0.0000000
   5.922052000     1.0000000    0.0000000     1.4524660   -1.4684650     1.0000000    0.0000000     1.0000000    0.0000000
   5.922053000     1.0000000    0.0000000     1.4508730   -1.4692800     1.0000000    0.0000000     1.0000000    0.0000000
   5.922054000     1.0000000    0.0000000     1.4511380   -1.4741270     1.0000000    0.0000000     1.0000000    0.0000000
   5.922055000     1.0000000    0.0000000     1.4511680   -1.4739170     1.0000000    0.0000000     1.0000000    0.0000000
   5.922056000     1.0000000    0.0000000     1.4510780   -1.4714830     1.0000000    0.0000000     1.0000000    0.0000000
   5.922057000     1.0000000    0.0000000     1.4510380   -1.4752070     1.0000000    0.0000000     1.0000000    0.0000000
   5.922058000     1.0000000    0.0000000     1.4489460   -1.4733250     1.0000000    0.0000000     1.0000000    0.0000000
   5.922059000     1.0000000    0.0000000     1.4488730   -1.4709030     1.0000000    0.0000000     1.0000000    0.0000000
   5.922060000     1.0000000    0.0000000     1.4480600   -1.4749180     1.0000000    0.0000000     1.0000000    0.0000000
   5.922061000     1.0000000    0.0000000     1.4449370   -1.4720590     1.0000000    0.0000000     1.0000000    0.0000000
   5.922062000     1.0000000    0.0000000     1.4458330   -1.4747040     1.0000000    0.0000000     1.0000000    0.0000000
   5.922063000     1.0000000    0.0000000     1.4469900   -1.4733900     1.0000000    0.0000000     1.0000000    0.0000000
   5.922064000     1.0000000    0.0000000     1.4454460   -1.4761430     1.0000000    0.0000000     1.0000000    0.0000000
   5.922065000     1.0000000    0.0000000     1.4471000   -1.4757140     1.0000000    0.0000000     1.0000000    0.0000000
   5.922066000     1.0000000    0.0000000     1.4440470   -1.4761050     1.0000000    0.0000000     1.0000000    0.0000000
   5.922067000     1.0000000    0.0000000     1.4474550   -1.4748130     1.0000000    0.0000000     1.0000000    0.0000000
   5.922068000     1.0000000    0.0000000     1.4439170   -1.4779920     1.0000000    0.0000000     1.0000000    0.0000000
   5.922069000     1.0000000    0.0000000     1.4455130   -1.4787830     1.0000000    0.0000000     1.0000000    0.0000000
   5.922070000     1.0000000    0.0000000     1.4444480   -1.4773070     1.0000000    0.0000000     1.0000000    0.0000000
   5.922071000     1.0000000    0.0000000     1.4449060   -1.4787720     1.0000000    0.0000000     1.0000000    0.0000000
   5.922072000     1.0000000    0.0000000     1.4424510   -1.4763160     1.0000000    0.0000000     1.0000000    0.0000000
   5.922073000     1.0000000    0.0000000     1.4440200   -1.4797210     1.0000000    0.0000000     1.0000000    0.0000000
   5.922074000     1.0000000    0.0000000     1.4431800   -1.4778230     1.0000000    0.0000000     1.0000000    0.0000000
   5.922075000     1.0000000    0.0000000     1.4425560   -1.4795510     1.0000000    0.0000000     1.0000000    0.0000000
   5.922076000     1.0000000    0.0000000     1.4419130   -1.4820600     1.0000000    0.0000000     1.0000000    0.0000000
   5.922077000     1.0000000    0.0000000     1.4397940   -1.4821870     1.0000000    0.0000000     1.0000000    0.0000000
   5.922078000     1.0000000    0.0000000     1.4384220   -1.4792660     1.0000000    0.0000000     1.0000000    0.0000000
   5.922079000     1.0000000    0.0000000     1.4428630   -1.4807010     1.0000000    0.0000000     1.0000000    0.0000000
   5.922080000     1.0000000    0.0000000     1.4382510   -1.4827830     1.0000000    0.0000000     1.0000000    0.0000000
   5.922081000     1.0000000    0.0000000     1.4402930   -1.4843730     1.0000000    0.0000000     1.0000000    0.0000000
   5.922082000     1.0000000    0.0000000     1.4369380   -1.4827170     1.0000000    0.0000000     1.0000000    0.0000000
   5.922083000     1.0000000    0.0000000     1.4383020   -1.4836600     1.0000000    0.0000000     1.0000000    0.0000000
   5.922084000     1.0000000    0.0000000     1.4379270   -1.4847410     1.0000000    0.0000000     1.0000000    0.0000000
   5.922085000     1.0000000    0.0000000     1.4367530   -1.4860320     1.0000000    0.0000000     1.0000000    0.0000000
   5.922086000     1.0000000    0.0000000     1.4370920   -1.4836040     1.0000000    0.0000000     1.0000000    0.0000000
   5.922087000     1.0000000    0.0000000     1.4361550   -1.4835230     1.0000000    0.0000000     1.0000000    0.0000000
   5.922088000     1.0000000    0.0000000     1.4360400   -1.4868720     1.0000000    0.0000000     1.0000000    0.0000000
   5.922089000     1.0000000    0.0000000     1.4347380   -1.4865020     1.0000000    0.0000000     1.0000000    0.0000000
   5.922090000     1.0000000    0.0000000     1.4355410   -1.4862160     1.0000000    0.0000000     1.0000000    0.0000000
   5.922091000     1.0000000    0.0000000     1.4362120   -1.4873230     1.0000000    0.0000000     1.0000000    0.0000000
   5.922092000     1.0000000    0.0000000     1.4360620   -1.4870330     1.0000000    0.0000000     1.0000000    0.0000000
   5.922093000     1.0000000    0.0000000     1.4342760   -1.4879200     1.0000000    0.0000000     1.0000000    0.0000000
   5.922094000     1.0000000    0.0000000     1.4321040   -1.4878320     1.0000000    0.0000000     1.0000000    0.0000000
   5.922095000     1.0000000    0.0000000     1.4349700   -1.4894960     1.0000000    0.0000000     1.0000000    0.0000000
   5.922096000     1.0000000    0.0000000     1.4336800   -1.4877580     1.0000000    0.0000000     1.0000000    0.0000000
   5.922097000     1.0000000    0.0000000     1.4330850   -1.4893010     1.0000000    0.0000000     1.0000000    0.0000000
   5.922098000     1.0000000    0.0000000     1.4295590   -1.4903450     1.0000000    0.0000000     1.0000000    0.0000000
   5.922099000     1.0000000    0.0000000     1.4318940   -1.4920200     1.0000000    0.0000000     1.0000000    0.0000000
   5.922100000     1.0000000    0.0000000     1.4308680   -1.4889300     1.0000000    0.0000000     1.0000000    0.0000000
   5.922101000     1.0000000    0.0000000     1.4308590   -1.4924320     1.0000000    0.0000000     1.0000000    0.0000000
   5.922102000     1.0000000    0.0000000     1.4294660   -1.4920260     1.0000000    0.0000000     1.0000000    0.0000000
   5.922103000     1.0000000    0.0000000     1.4281800   -1.4915860     1.0000000    0.0000000     1.0000000    0.0000000
   5.922104000     1.0000000    0.0000000     1.4284630   -1.4919490     1.0000000    0.0000000     1.0000000    0.0000000
   5.922105000     1.0000000    0.0000000     1.4285800   -1.4941270     1.0000000    0.0000000     1.0000000    0.0000000
   5.922106000     1.0000000    0.0000000     1.4263890   -1.4930040     1.0000000    0.0000000     1.0000000    0.0000000
   5.922107000     1.0000000    0.0000000     1.4266310   -1.4939960     1.0000000    0.0000000     1.0000000    0.0000000
   5.922108000     1.0000000    0.0000000     1.4270410   -1.4948010     1.0000000    0.0000000     1.0000000    0.0000000
   5.922109000     1.0000000    0.0000000     1.4262490   -1.4942340     1.0000000    0.0000000     1.0000000    0.0000000
   5.922110000     1.0000000    0.0000000     1.4268850   -1.4939440     1.0000000    0.0000000     1.0000000    0.0000000
   5.922111000     1.0000000    0.0000000     1.4245730   -1.4936930     1.0000000    0.0000000     1.0000000    0.0000000
   5.922112000     1.0000000    0.0000000     1.4267360   -1.4937470     1.0000000    0.0000000     1.0000000    0.0000000
   5.922113000     1.0000000    0.0000000     1.4238170   -1.4950890     1.0000000    0.0000000     1.0000000    0.0000000
   5.922114000     1.0000000    0.0000000     1.4241580   -1.4993460     1.0000000    0.0000000     1.0000000    0.0000000
   5.922115000     1.0000000    0.0000000     1.4249210   -1.4964530     1.0000000    0.0000000     1.0000000    0.0000000
   5.922116000     1.0000000    0.0000000     1.4249090   -1.4983720     1.0000000    0.0000000     1.0000000    0.0000000
   5.922117000     1.0000000    0.0000000     1.4219630   -1.4991780     1.0000000    0.0000000     1.0000000    0.0000000
   5.922118000     1.0000000    0.0000000     1.4224310   -1.4982290     1.0000000    0.0000000     1.0000000    0.0000000
   5.922119000     1.0000000    0.0000000     1.4199510   -1.4975000     1.0000000    0.0000000     1.0000000    0.0000000
   5.922120000     1.0000000    0.0000000     1.4207300   -1.4976290     1.0000000    0.0000000     1.0000000    0.0000000
   5.922121000     1.0000000    0.0000000     1.4197730   -1.4990740     1.0000000    0.0000000     1.0000000    0.0000000
   5.922122000     1.0000000    0.0000000     1.4208440   -1.4988240     1.0000000    0.0000000     1.0000000    0.0000000
   5.922123000     1.0000000    0.0000000     1.4214590   -1.4992850     1.0000000    0.0000000     1.0000000    0.0000000
   5.922124000     1.0000000    0.0000000     1.4193040   -1.5002660     1.0000000    0.0000000     1.0000000    0.0000000
   5.922125000     1.0000000    0.0000000     1.4187970   -1.5036000     1.0000000    0.0000000     1.0000000    0.0000000
   5.922126000     1.0000000    0.0000000     1.4202290   -1.5016470     1.0000000    0.0000000     1.0000000    0.0000000
   5.922127000     1.0000000    0.0000000     1.4182880   -1.5022210     1.0000000    0.0000000     1.0000000    0.0000000
   5.922128000     1.0000000    0.0000000     1.4186270   -1.5030870     1.0000000    0.0000000     1.0000000    0.0000000
   5.922129000     1.0000000    0.0000000     1.4165780   -1.5040270     1.0000000    0.0000000     1.0000000    0.0000000
   5.922130000     1.0000000    0.0000000     1.4169780   -1.5031390     1.0000000    0.0000000     1.0000000    0.0000000
   5.922131000     1.0000000    0.0000000     1.4164150   -1.5056330     1.0000000    0.0000000     1.0000000    0.0000000
   5.922132000     1.0000000    0.0000000     1.4163160   -1.5046580     1.0000000    0.0000000     1.0000000    0.0000000
   5.922133000     1.0000000    0.0000000     1.4169460   -1.5041750     1.0000000    0.0000000     1.0000000    0.0000000
   5.922134000     1.0000000    0.0000000     1.4139010   -1.5060180     1.0000000    0.0000000     1.0000000    0.0000000
   5.922135000     1.0000000    0.0000000     1.4154670   -1.5054390     1.0000000    0.0000000     1.0000000    0.0000000
   5.922136000     1.0000000    0.0000000     1.4138910   -1.5055590     1.0000000    0.0000000     1.0000000    0.0000000
   5.922137000     1.0000000    0.0000000     1.4151460   -1.5051390     1.0000000    0.0000000     1.0000000    0.0000000
   5.922138000     1.0000000    0.0000000     1.4151950   -1.5063050     1.0000000    0.0000000     1.0000000    0.0000000
   5.922139000     1.0000000    0.0000000     1.4131920   -1.5072930     1.0000000    0.0000000     1.0000000    0.0000000
   5.922140000     1.0000000    0.0000000     1.4111930   -1.5084390     1.0000000    0.0000000     1.0000000    0.0000000
   5.922141000     1.0000000    0.0000000     1.4084720   -1.5090580     1.0000000    0.0000000     1.0000000    0.0000000
   5.922142000     1.0000000    0.0000000     1.4110810   -1.5092170     1.0000000    0.0000000     1.0000000    0.0000000
   5.922143000     1.0000000    0.0000000     1.4094830   -1.5106740     1.0000000    0.0000000     1.0000000    0.0000000
   5.922144000     1.0000000    0.0000000     1.4097050   -1.5091230     1.0000000    0.0000000     1.0000000    0.0000000
   5.922145000     1.0000000    0.0000000     1.4082630   -1.5097110     1.0000000    0.0000000     1.0000000    0.0000000
   5.922146000     1.0000000    0.0000000     1.4102490   -1.5075280     1.0000000    0.0000000     1.0000000    0.0000000
   5.922147000     1.0000000    0.0000000     1.4097380   -1.5099200     1.0000000    0.0000000     1.0000000    0.0000000
   5.922148000     1.0000000    0.0000000     1.4069150   -1.5124200     1.0000000    0.0000000     1.0000000    0.0000000
   5.922149000     1.0000000    0.0000000     1.4068560   -1.5106730     1.0000000    0.0000000     1.0000000    0.0000000
   5.922150000     1.0000000    0.0000000     1.4064850   -1.5117520     1.0000000    0.0000000     1.0000000    0.0000000
   5.922151000     1.0000000    0.0000000     1.4073270   -1.5152840     1.0000000    0.0000000     1.0000000    0.0000000
   5.922152000     1.0000000    0.0000000     1.4053060   -1.5108530     1.0000000    0.0000000     1.0000000    0.0000000
   5.922153000     1.0000000    0.0000000     1.4060630   -1.5131910     1.0000000    0.0000000     1.0000000    0.0000000
   5.922154000     1.0000000    0.0000000     1.4056770   -1.5154600     1.0000000    0.0000000     1.0000000    0.0000000
   5.922155000     1.0000000    0.0000000     1.4039550   -1.5150690     1.0000000    0.0000000     1.0000000    0.0000000
   5.922156000     1.0000000    0.0000000     1.4034320   -1.5154030     1.0000000    0.0000000     1.0000000    0.0000000
   5.922157000     1.0000000    0.0000000     1.4027670   -1.5126400     1.0000000    0.0000000     1.0000000    0.0000000
   5.922158000     1.0000000    0.0000000     1.4033400   -1.5158900     1.0000000    0.0000000     1.0000000    0.0000000
   5.922159000     1.0000000    0.0000000     1.4039620   -1.5173110     1.0000000    0.0000000     1.0000000    0.0000000
